================ SPI Configuration ================
CSN Pin  	 = CE0 (PI Hardware Driven)
CE Pin  	 = Custom GPIO22
Clock Speed	 = 8 Mhz
================ NRF Configuration ================
STATUS		 = 0x0e RX_DR=0 TX_DS=0 MAX_RT=0 RX_P_NO=7 TX_FULL=0
RX_ADDR_P0-1	 = 0x6570697030 0x6570697031
RX_ADDR_P2-5	 = 0x32 0x33 0x34 0x35
TX_ADDR		 = 0x7961776167
RX_PW_P0-6	 = 0x20 0x20 0x20 0x20 0x20 0x20
EN_AA		 = 0x3f
EN_RXADDR	 = 0x3f
RF_CH		 = 0x4c
RF_SETUP	 = 0x07
CONFIG		 = 0x0f
DYNPD/FEATURE	 = 0x3f 0x04
Data Rate	 = 1MBPS
Model		 = nRF24L01+
CRC Length	 = 16 bits
PA Power	 = PA_MAX
Got payload: L003A
Got payload: L003A
Got payload: L003A
Got payload: L003A
Got payload: L003A
Got payload: L003A
Got payload: L003A
Got payload: L003A
Got payload: L003A
Got payload: L003A
Got payload: L003A
Got payload: L003A
Got payload: L003A
Got payload: L003A
Got payload: L003A
Got payload: L003A
Got payload: L003A
